Circuit: * C:\Users\gabry\eletronica1\resources\draft\relatorio4\parte3\Draft.asc

Instance "m:u2:1": Width narrower than recommended for a level 3 MOSFET.
Instance "m:u1:1": Width narrower than recommended for a level 3 MOSFET.
Direct Newton iteration for .op point succeeded.
Semiconductor Device Operating Points:
                        --- Diodes ---
Name:    d:u2:sd     d:u2:dg     d:u2:2      d:u2:1      d:u1:sd
Model:   u2:dsub     u2:dcgd     u2:dlim     u2:dlim     u1:dsub
Id:     -6.83e-10    1.07e-14    3.32e-05    3.32e-05   -6.91e-10
Vd:     -2.36e+00    7.42e-03    7.42e-03    7.42e-03   -1.00e+01
Req:     1.00e+12    6.60e+11    1.94e+02    1.94e+02    1.00e+12
CAP:     3.29e-12    1.21e-11    0.00e+00    0.00e+00    1.48e-12

Name:    d:u1:dg     d:u1:2      d:u1:1
Model:   u1:dcgd     u1:dlim     u1:dlim
Id:     -7.64e-12   -1.00e-04   -1.00e-04
Vd:     -7.63e+00   -7.63e+00   -7.63e+00
Req:     1.00e+12    1.00e+12    1.00e+12
CAP:     2.49e-12    0.00e+00    0.00e+00

                        --- MOSFET Transistors ---
Name:        m:u2:1      m:u1:1
Model:       u2:nmos     u1:nmos
Id:          7.64e-03    7.64e-03
Vgs:         2.36e+00    2.36e+00
Vds:         2.35e+00    9.99e+00
Vbs:         0.00e+00    0.00e+00
Vth:         2.15e+00    2.15e+00
Vdsat:       1.59e-01    1.59e-01
Gm:          7.35e-02    7.35e-02
Gds:         1.93e-06    1.93e-06
Gmb:         4.28e-02    4.28e-02
Cbd:         0.00e+00    0.00e+00
Cbs:         0.00e+00    0.00e+00
Cgsov:       0.00e+00    0.00e+00
Cgdov:       0.00e+00    0.00e+00
Cgbov:       0.00e+00    0.00e+00
Cgs:         3.84e-16    3.84e-16
Cgd:         0.00e+00    0.00e+00
Cgb:         0.00e+00    0.00e+00



Date: Fri Oct 09 01:58:36 2020
Total elapsed time: 0.026 seconds.

tnom = 27
temp = 27
method = trap
totiter = 13
traniter = 0
tranpoints = 0
accept = 0
rejected = 0
matrix size = 23
fillins = 8
solver = Normal
Matrix Compiler1: 1.68 KB object code size
Matrix Compiler2: 1.99 KB object code size
