Circuit: * C:\Users\gabry\eletronica1\resources\draft\relatorio4\parte2\Draft2.asc

Instance "m:u1:1": Width narrower than recommended for a level 3 MOSFET.
Direct Newton iteration for .op point succeeded.
Semiconductor Device Operating Points:
                        --- Diodes ---
Name:    d:u1:sd     d:u1:dg     d:u1:2      d:u1:1
Model:   u1:dsub     u1:dcgd     u1:dlim     u1:dlim
Id:     -6.83e-10   -3.64e-14   -6.81e-05   -6.81e-05
Vd:     -2.30e+00   -2.96e-02   -2.96e-02   -2.96e-02
Req:     1.00e+12    8.90e+11    8.12e+02    8.12e+02
CAP:     3.33e-12    1.17e-11    0.00e+00    0.00e+00

                        --- MOSFET Transistors ---
Name:        m:u1:1
Model:       u1:nmos
Id:          2.23e-03
Vgs:         2.27e+00
Vds:         2.30e+00
Vbs:         0.00e+00
Vth:         2.15e+00
Vdsat:       8.59e-02
Gm:          3.99e-02
Gds:         3.06e-07
Gmb:         2.36e-02
Cbd:         0.00e+00
Cbs:         0.00e+00
Cgsov:       0.00e+00
Cgdov:       0.00e+00
Cgbov:       0.00e+00
Cgs:         3.84e-16
Cgd:         0.00e+00
Cgb:         0.00e+00



Date: Fri Oct 09 01:08:58 2020
Total elapsed time: 0.024 seconds.

tnom = 27
temp = 27
method = trap
totiter = 19
traniter = 0
tranpoints = 0
accept = 0
rejected = 0
matrix size = 15
fillins = 5
solver = Normal
Matrix Compiler1: 1006 bytes object code size
Matrix Compiler2: 1.24 KB object code size
